Frequency Log(Hz), Gain (dB), Phase (deg)
2.99999764447161, -0.355065915481963, -11.9341103891299
3.00100118870514, -0.341533438198045, -12.0904543059585
3.00199758802927, -0.353479493975341, -12.0201755599985
3.00300134704309, -0.360501258831898, -11.9564617870533
3.00399798236036, -0.355271218093595, -12.0326298382449
3.00500193198058, -0.344593875704417, -12.1333625719228
3.00599877913069, -0.356251854843614, -12.0856764375397
3.00699811949312, -0.338444289367352, -12.2213470753056
3.00799993064288, -0.34695718041094, -12.1367423136858
3.00899943617682, -0.35742312335155, -12.0622427065708
3.010001389831, -0.356005276345868, -12.1586330894107
3.01100103721412, -0.35217281969122, -12.1851709163427
3.01199838891885, -0.357710672200545, -12.2130945110559
3.01299816599614, -0.361061450737234, -12.3125658124282
3.01400034647353, -0.361985812182786, -12.2692945433301
3.01500021963676, -0.358300230133405, -12.3940125734959
3.01599779608566, -0.368357472208503, -12.3900526619859
3.01699775369609, -0.370530899992705, -12.3652248855854
3.01800007079407, -0.368380715062959, -12.4440432717645
3.0190000799495, -0.369194870349064, -12.4436978072761
3.01999779176651, -0.368815010303622, -12.5281064850837
3.0209978413336, -0.365966653924104, -12.5264887546534
3.02200020727268, -0.357224459892286, -12.5425521433766
3.02300026504452, -0.368490219458567, -12.4699679946715
3.02399802525484, -0.369229735807749, -12.5089692473384
3.02499808059269, -0.373751992806033, -12.5803938813569
3.02600040997323, -0.372759827747021, -12.5567173639644
3.02700043135471, -0.372178155805651, -12.6237705666976
3.02799815534168, -0.371172296243944, -12.6397349622845
3.02899813261183, -0.363480504255231, -12.7576850454563
3.03000034237082, -0.378466227467577, -12.6253532891535
3.03100024468098, -0.358794095822644, -12.6816396115036
3.03199785014306, -0.373413025713903, -12.765421867411
3.03300216629104, -0.389992254882402, -12.7904358498082
3.03399967717904, -0.374530428680123, -12.7570155443434
3.03499938001955, -0.372197142443343, -12.8709273971699
3.03600125444889, -0.376948188580018, -12.8799860189165
3.03700082297146, -0.381765520973365, -12.8251471179507
3.03799809617741, -0.388653950963521, -12.9123159479553
3.03900195814964, -0.381913940818749, -12.8605924921368
3.03999907852754, -0.394542247215387, -12.8738832993332
3.04099833121742, -0.393804684157441, -12.917948136174
3.04199969627974, -0.390025943685974, -12.9544929508574
3.04299875777672, -0.382135632454761, -13.0891766867951
3.04399991227572, -0.384883299630314, -13.1250270779496
3.04499876417693, -0.393130587391045, -13.1398977887148
3.0459996898914, -0.391332877077288, -13.1203074998489
3.04699831405913, -0.38219697386927, -13.1592974371843
3.04799899303158, -0.375047982919548, -13.1849208482645
3.0490017073597, -0.410302798446166, -13.1865334690262
3.05000211191767, -0.40254269623495, -13.1291420041166
3.05100021732224, -0.406804928881659, -13.215094637319
3.05200034005242, -0.403534387772354, -13.2847907722491
3.05299816492293, -0.399826017697745, -13.2163169361192
3.05399798864304, -0.386287632230985, -13.3373494629804
3.05499979217439, -0.396527184589442, -13.3938201781189
3.05599929012495, -0.402035373748835, -13.3523949176797
3.05700074972402, -0.400912975743145, -13.4147480923906
3.05799990532327, -0.408137646117686, -13.3581499614082
3.05900100458107, -0.414400248375729, -13.4804728832788
3.05999980149489, -0.411274718651087, -13.5549714042621
3.06100052424864, -0.403197082669425, -13.5549970120372
3.06199894638786, -0.406351994407075, -13.5465331144559
3.06299927671837, -0.407003974604298, -13.6183765439396
3.06400149681115, -0.404695727089725, -13.5921586774233
3.06500140940756, -0.417579804724348, -13.6456600731357
3.06599902510869, -0.415784848921682, -13.5885550768194
3.06699851421211, -0.419291828233494, -13.6623275804899
3.0679998585525, -0.412479458765872, -13.6714446489306
3.06899889942276, -0.423303267812815, -13.7470621427268
3.06999977851785, -0.423860594564104, -13.7689060497735
3.07099835628034, -0.434457099628272, -13.837122398558
3.07199875541929, -0.418947769354599, -13.9328605752407
3.07300095810156, -0.414583089172255, -13.9023863423148
3.07400085336755, -0.416001125446146, -13.9072302673232
3.07499845181778, -0.416141945167998, -13.8834431979262
3.07600191285845, -0.425104955598232, -13.7635187142525
3.07699899565307, -0.418033030851866, -13.9496919527805
3.07800190595745, -0.41569756962235, -14.0010240717017
3.07899845922337, -0.427122438865147, -14.0239811370881
3.08000080517297, -0.418325826900767, -13.9754166301953
3.0810008430473, -0.433687967285534, -14.1436700849658
3.08199858345141, -0.431326535420254, -13.9799705537617
3.08299804622755, -0.408132089740076, -14.2410691012737
3.08399921425026, -0.439182776295641, -14.2064009147418
3.08499807961303, -0.438103958894297, -14.2475855100635
3.08599863458835, -0.430670028896377, -14.1978129415198
3.0870008622462, -0.428809768997442, -14.2730311064359
3.08800078237289, -0.440403917001893, -14.1702881303131
3.08899840556974, -0.454561687046143, -14.2276891861626
3.09000163274658, -0.434583243319394, -14.3878351675239
3.09099861170189, -0.429609114032216, -14.2753154625098
3.09200116134104, -0.448683810018414, -14.3637051970575
3.09300140196785, -0.452145303250897, -14.3860115932195
3.09399934419382, -0.445539423432774, -14.445703064109
3.09499889859461, -0.44809950702081, -14.5229768284632
3.09600004880048, -0.447275246877616, -14.5226421635728
3.09699889642828, -0.44879633650213, -14.5541299932803
3.09799932523077, -0.427337008198556, -14.5376173748363
3.0990013190282, -0.444338280839067, -14.6321814522733
3.10000100636998, -0.451416923598455, -14.5932533121267
3.10099839785005, -0.460049778534363, -14.7502922604729
3.10200117934219, -0.469286652593441, -14.7016177520552
3.10300165075511, -0.452555598410341, -14.7053863848755
3.10399982270768, -0.454196900088853, -14.758723135109
3.10499951700131, -0.459544858562931, -14.9310083192693
3.10600071788073, -0.474058411331694, -14.7266034051759
3.10699961594925, -0.448220575320405, -14.8313522991159
3.10800000679045, -0.459041351569793, -14.8643361911411
3.10900187483437, -0.457427853749421, -14.8880095799252
3.11000143700088, -0.454213382157675, -14.9525866232401
3.11099870387992, -0.449511048788585, -14.9008822718254
3.11200118662737, -0.471841778256318, -15.0066081679496
3.11300136067021, -0.47035253304078, -15.0962497346237
3.11399923661787, -0.456790073602054, -14.9659141183938
3.11499854951553, -0.474712981350297, -15.0185994127441
3.11599928420537, -0.463039866380901, -15.0162355830859
3.11700142559743, -0.47346358556945, -15.2255300249747
3.1180012598551, -0.458053549442745, -15.2159165071694
3.11899879757696, -0.475406136046369, -15.2239036517917
3.12000141302038, -0.486564607347939, -15.2376753515445
3.12100171914866, -0.460814452839779, -15.2344087599468
3.12199972657543, -0.469771770553944, -15.2561081150434
3.12299910236516, -0.482317697702988, -15.4064339281298
3.12399983183025, -0.478948840574379, -15.3721284555745
3.12499826064999, -0.476085484085371, -15.3216157833767
3.12600166207077, -0.472733209667903, -15.4640614522664
3.12699912758843, -0.471365903452432, -15.490912965673
3.12800153675175, -0.489817554004081, -15.4386996817565
3.129001637549, -0.478293253820336, -15.5242447608728
3.12999944058725, -0.477549832103766, -15.519673329013
3.13099854618975, -0.479596014206059, -15.5888472589593
3.13199894012825, -0.498646358569481, -15.6485428122544
3.1330006082406, -0.493676800374511, -15.6083423212028
3.13399997139471, -0.482259668121867, -15.7861942446972
3.13500059703499, -0.48898473401549, -15.7634392940252
3.13599892250672, -0.490589190478094, -15.7638638491125
3.13699849889615, -0.500795091911612, -15.9348449636618
3.13799931231875, -0.495053133277903, -15.8253624583829
3.13900134895547, -0.498461963945326, -15.7903322304742
3.14000107893955, -0.504772533683137, -15.913595577743
3.14099851286627, -0.491130105693786, -15.9048589015506
3.14200066126583, -0.504291298098017, -15.9977376201788
3.14300050249876, -0.493518357565722, -16.0769936903771
3.14400153106564, -0.508247189107213, -16.05417290222
3.14500025761328, -0.519315149914376, -16.065759102484
3.14600016061067, -0.519051089262151, -16.1224804324764
3.14700122667788, -0.510532263185421, -16.0364547421423
3.14799999055359, -0.510271361312878, -16.2478463193913
3.14899990683696, -0.505192632665657, -16.1765537093876
3.15000096231327, -0.520619067328634, -16.2602237530383
3.15099971564673, -0.506822542923525, -16.3729188581439
3.15199959772994, -0.508690147699735, -16.185847865104
3.15300059551184, -0.508632908334222, -16.3146024220255
3.15399929141593, -0.529219006400894, -16.4212148302544
3.1549990927915, -0.510224485346027, -16.4302228284058
3.15599998674957, -0.532140870965044, -16.4950292389303
3.15699857930677, -0.515848965765503, -16.4612406803655
3.15800162781593, -0.527528710275881, -16.5538460306345
3.15899899939745, -0.523014230007311, -16.4896102818466
3.16000080153694, -0.524720493623218, -16.5490017874297
3.16100029810203, -0.523878452820635, -16.6927717405593
3.16200084214287, -0.524381904385688, -16.6572030620391
3.16299908638987, -0.531860522033988, -16.6896080475108
3.16399836851511, -0.529303878625292, -16.7267011831005
3.16499867610675, -0.514775585943307, -16.6839175060423
3.1659999968149, -0.522586407245534, -16.6992850779035
3.16699901416153, -0.525134950499827, -16.9214155548695
3.1679990353348, -0.538770699207447, -16.8578108872099
3.16900004814035, -0.545459736603658, -16.8598962150442
3.16999875899907, -0.555381033358253, -16.9089623180267
3.17099845239999, -0.549495143682994, -16.8639803165585
3.17199911630265, -0.54622022813305, -17.0083563395453
3.17300073872762, -0.530689434257042, -17.0460569406449
3.17400005640436, -0.562070899104271, -17.0135564082782
3.17500032381152, -0.55065447388372, -17.1101773105457
3.17600152912163, -0.536351537926843, -17.0762858694652
3.17700043160047, -0.532418144821025, -17.1675865081782
3.17800026338307, -0.542247170988825, -17.2796785378241
3.17900101279226, -0.561874835879106, -17.2658265164166
3.1799994614645, -0.562309335017601, -17.2680910607513
3.18099881935386, -0.55722913348998, -17.3503237793239
3.18199907493188, -0.557173293318729, -17.3546562432738
3.1830002167297, -0.559843693609056, -17.3767925842717
3.18399905598808, -0.560762216599772, -17.4018051321454
3.18499877334143, -0.573412543356936, -17.5523783806106
3.18599935746755, -0.556507707394982, -17.4207915232767
3.1870007971033, -0.559853469221913, -17.5842706031881
3.18799993283098, -0.555778378192233, -17.5748265118138
3.18899991622269, -0.568335090958677, -17.5327245977614
3.1900007361599, -0.569432065744957, -17.6971894115392
3.19099925503623, -0.569596674714705, -17.6595757860154
3.1919986027911, -0.566497170657041, -17.70631170793
3.19299876844898, -0.573912549105509, -17.7329084083173
3.19399974109229, -0.576808713588615, -17.834636207165
3.19500150986138, -0.578051385142921, -17.7628491098144
3.1960009732095, -0.565658883060996, -17.8615613357075
3.19700122538, -0.58597579506341, -17.8582055806237
3.19799917909668, -0.570470640118122, -17.9728049265914
3.19900098390036, -0.580055905071636, -17.906249749366
3.20000048311739, -0.57725418515931, -18.0230550797833
3.20100074272445, -0.587573545889318, -18.066707357035
3.20199870384354, -0.583628746419791, -18.026459258914
3.20300045973997, -0.575908832308934, -18.1144190792456
3.20399991027459, -0.598932527831715, -18.3058950544183
3.205000093415, -0.592280029925346, -18.2645831498555
3.20600099883054, -0.58013222373501, -18.2192766520825
3.20699960279259, -0.590578968116039, -18.2087228551672
3.20799892240952, -0.59772663215688, -18.4261322204575
3.20899894748532, -0.601353277366594, -18.3905576445584
3.2099996678795, -0.600637524756796, -18.3975321888368
3.21100107350707, -0.614474613826037, -18.5112434447065
3.21200017538287, -0.596142612180749, -18.5203904986405
3.21299995620822, -0.604314513225207, -18.5560807944195
3.21400040603014, -0.604483554443814, -18.6210163992708
3.21499855649084, -0.601506573140298, -18.5623070780912
3.21600032148247, -0.608597874989452, -18.6658886285019
3.21699978107049, -0.598400825435999, -18.7694065695096
3.21799988394631, -0.594850794450137, -18.6812654672182
3.21900062039588, -0.618105733259753, -18.7706478641713
3.21999905616802, -0.608580051778543, -18.8416986720346
3.2210010375788, -0.622192190170047, -18.7936303413841
3.2220007125909, -0.623250287612148, -18.8544872512675
3.22300099626282, -0.621752268438339, -18.8328419072335
3.22399898133631, -0.620910199156853, -18.8884031737877
3.2250004606179, -0.613063335173842, -19.0518526084435
3.2259996358092, -0.622593560720187, -19.0707300201642
3.22699939533507, -0.624778693349726, -19.0052347220877
3.22799972989414, -0.62522466465243, -19.14777573691
3.22900063023767, -0.631355629001257, -19.1405384348949
3.229999229151, -0.636528415175174, -19.2991103127748
3.23100124011369, -0.63378217434798, -19.2575956446686
3.23200094454179, -0.632290278448646, -19.2990740127293
3.23300119137958, -0.626425121341091, -19.2947281650087
3.23399913978802, -0.634768909599896, -19.3857892098536
3.2350004509513, -0.638893279762893, -19.3903520273308
3.23599945879691, -0.642253730211705, -19.3558324077922
3.23699898623904, -0.641792421861943, -19.5393917454172
3.23799902442635, -0.648102166715829, -19.5324378168628
3.23899956455855, -0.638880820154657, -19.6168270038733
3.24000059788624, -0.645699859305523, -19.629473640252
3.24099932917284, -0.65674237238146, -19.6148052567126
3.24200132926794, -0.653359808941322, -19.6976025711441
3.24300102287844, -0.651123764700653, -19.7494031066344
3.24400118795988, -0.653582655004793, -19.8148790756515
3.24499905498727, -0.668097787930666, -19.8308830101287
3.2460001438205, -0.663463955972512, -19.930460726156
3.24699893035764, -0.660967477466795, -19.8758609507
3.24800090916488, -0.67452679638444, -20.0062948526447
3.2490005815854, -0.674854037182871, -19.9734710357966
3.25000068760748, -0.668100835295362, -20.0923563062115
3.25100121896064, -0.665832634229801, -20.0913844834857
3.25199945057821, -0.662506553323095, -20.1376461673137
3.25300081423475, -0.665942424291333, -20.2047356513802
3.2539998743324, -0.675065802474395, -20.2928439183481
3.25499933960514, -0.683283595431491, -20.3452727869324
3.25599920199009, -0.689918493770717, -20.260317984022
3.2569994534725, -0.688257788786706, -20.3066546906013
3.25800008608557, -0.68535868142204, -20.4501282537794
3.25900109191031, -0.691503168961231, -20.4175868186147
3.2599997958203, -0.68369556919505, -20.4735261826239
3.26099886952085, -0.681122620603782, -20.517555713314
3.26200096020906, -0.705474337626168, -20.667552277029
3.26300074399605, -0.701478979435544, -20.5137525822687
3.26400087429001, -0.702389344679142, -20.6609572287043
3.26499870668957, -0.688971407045219, -20.6160685574906
3.26599951309929, -0.700582612134988, -20.6324710870424
3.2670006431298, -0.69851054952357, -20.8572126891279
3.26799947067493, -0.708543536566629, -20.8771954212517
3.26900123143088, -0.720843938155897, -20.9077307466909
3.27000068680268, -0.708388162623648, -20.9409979223133
3.27100044793486, -0.717108339158809, -20.914643752188
3.27200050744325, -0.707730330338853, -20.9397478762187
3.27300085798916, -0.717659892472998, -21.090730837958
3.27399890962964, -0.709940111846611, -21.0773163533039
3.27499982636105, -0.727811583575604, -21.1032592903924
3.27600101237317, -0.738118626340181, -21.2312321896867
3.27699989564272, -0.727101591547427, -21.1981979312263
3.27799904572412, -0.730576247463893, -21.27067723982
3.27900100860105, -0.730019818698509, -21.3403605899512
3.28000066516452, -0.734746878288482, -21.3424905892654
3.28100056736865, -0.738553571453342, -21.4020182169975
3.28200070824056, -0.743571862398322, -21.5385949611696
3.28300108085118, -0.742654502891564, -21.5897761490816
3.28399915445508, -0.759060902054535, -21.5443936116758
3.28499997573994, -0.743873687074137, -21.632609133168
3.28600100822556, -0.751440565248274, -21.648779412191
3.28699973867395, -0.752464176285725, -21.693139412365
3.28800117911101, -0.757645582279894, -21.7743975658458
3.28900031563631, -0.765181019572021, -21.8163197903895
3.28999964806923, -0.76534258190388, -21.8514885277321
3.29099916978897, -0.762749688170034, -21.7318200060345
3.29199887421708, -0.78364370684327, -21.9628401691932
3.2930012269153, -0.772442569958739, -22.015381007372
3.29399880509506, -0.774883884349308, -22.0556219808838
3.29499901859806, -0.775790662698538, -22.069452448094
3.29599938891535, -0.793569626214055, -22.1076548722704
3.29699990967756, -0.771804574877137, -22.1467875717793
3.2980005745566, -0.780713181169678, -22.3092034601192
3.29899893908692, -0.789156339818697, -22.1914411003877
3.29999987899284, -0.794361849062756, -22.2999441889487
3.30100094426549, -0.784271248763003, -22.3989106479233
3.30199970735029, -0.797941547509544, -22.3773644445652
3.30300101047984, -0.800599912620544, -22.5151666521091
3.30400001032864, -0.794727597870403, -22.4411042442735
3.30499912220679, -0.812509219177098, -22.6128284126307
3.30600073927251, -0.799354729642693, -22.6527876104111
3.30700005161464, -0.809755419563524, -22.6963264302249
3.3079994579972, -0.818903892191279, -22.7820792523188
3.30899895249898, -0.831876446651755, -22.8018619654357
3.3100009064394, -0.826134779039366, -22.7830743392471
3.31100055410746, -0.821295100494774, -22.7146973452506
3.31200027237834, -0.82142952217605, -22.9423159725528
3.31300005548701, -0.83247818071192, -22.9830505905472
3.31399989770702, -0.837911941936986, -22.9150740515579
3.3149997933504, -0.836090259149104, -23.0757998095227
3.31599973676745, -0.828634790513307, -23.0740893480263
3.3169997223466, -0.851570284290092, -23.1308100414794
3.31799974451422, -0.84568632667967, -23.2580595717683
3.31899979773445, -0.854037532117756, -23.2148120174025
3.31999987650906, -0.842790726619305, -23.3432725172474
3.32099997537725, -0.862217990408489, -23.4176959186205
3.3220000889155, -0.857216564609254, -23.3982804595636
3.32300021173739, -0.881101345255599, -23.4680194089626
3.32400033849343, -0.868523183481195, -23.4659699726844
3.32500046387092, -0.867568446107732, -23.5425937653241
3.32600058259373, -0.864061398747921, -23.6807155244503
3.32700068942219, -0.877468617738172, -23.6719622190042
3.32800077915286, -0.869085799285405, -23.7121136712687
3.32900084661842, -0.88569293615305, -23.6789610277371
3.33000088668746, -0.887286062053196, -23.7758410043915
3.33100089426433, -0.886303140968237, -23.8248684093405
3.33200086428896, -0.898228966241524, -23.8743232477691
3.3330007917367, -0.903539601123924, -23.8477688343444
3.33400067161817, -0.911472270547333, -24.0394127025365
3.33500049897903, -0.893576869080901, -24.0307515998824
3.3360002688999, -0.905104033205865, -24.1122623359405
3.33699997649611, -0.909640750161699, -24.1049027078073
3.33799961691759, -0.911053157881033, -24.1943551186082
3.33899918534867, -0.897686042213013, -24.1922693550071
3.34000089554095, -0.905967089957065, -24.2904522644716
3.34100030058155, -0.916994940068853, -24.3209832361053
3.34199961940169, -0.91832813315492, -24.3923289793769
3.34300105058159, -0.935906177274774, -24.3830980050244
3.34400017789228, -0.943587072140918, -24.5470856229558
3.34499920505607, -0.942276611123313, -24.6052774448902
3.34600031558993, -0.949679268002389, -24.6947524021877
3.346999123728, -0.949652121800003, -24.7396670008587
3.3479999961365, -0.953872900115495, -24.6553996955865
3.34900074027468, -0.947414545991668, -24.7997181453672
3.34999918370013, -0.949057367744475, -24.7884927106473
3.35099966308349, -0.96718651799255, -24.8897205698009
3.35200000104604, -0.971512148743898, -24.9627889239667
3.35300019327269, -0.96152747635768, -25.0562062777006
3.35400023548018, -0.96854392621552, -25.0614682061947
3.355000123417, -0.971298304184967, -25.0141764164538
3.35599985286317, -0.965779609744069, -25.0954837812763
3.3569994196301, -0.958674720642271, -25.148868169058
